<Qucs Dataset 0.0.19>
<indep dtime 8>
  +0.00000000000e+000
  +1.00000000000e-009
  +2.00000000000e-009
  +3.00000000000e-009
  +4.00000000000e-009
  +5.00000000000e-009
  +6.00000000000e-009
  +7.00000000000e-009
</indep>
<dep _net0.X dtime>
  0
  0
  0
  0
  0
  0
  0
  0
</dep>
<dep _net1.X dtime>
  0
  0
  0
  1
  0
  0
  0
  1
</dep>
<dep _net10.X dtime>
  0
  0
  1
  0
  0
  0
  0
  0
</dep>
<dep _net11.X dtime>
  0
  0
  0
  0
  0
  0
  0
  0
</dep>
<dep _net12.X dtime>
  0
  0
  1
  1
  0
  0
  0
  1
</dep>
<dep _net2.X dtime>
  1
  1
  0
  0
  1
  1
  1
  0
</dep>
<dep _net3.X dtime>
  0
  0
  0
  1
  0
  0
  0
  1
</dep>
<dep _net4.X dtime>
  0
  0
  1
  0
  0
  0
  0
  0
</dep>
<dep _net5.X dtime>
  0
  0
  0
  0
  0
  0
  0
  0
</dep>
<dep _net6.X dtime>
  0
  0
  0
  0
  0
  0
  0
  0
</dep>
<dep _net7.X dtime>
  1
  1
  0
  0
  1
  1
  1
  0
</dep>
<dep _net8.X dtime>
  0
  0
  0
  1
  0
  0
  0
  1
</dep>
<dep _net9.X dtime>
  0
  0
  0
  0
  0
  0
  0
  0
</dep>
<dep a.X dtime>
  0
  0
  0
  0
  1
  1
  1
  1
</dep>
<dep b.X dtime>
  0
  0
  1
  1
  0
  0
  1
  1
</dep>
<dep c.X dtime>
  0
  1
  0
  1
  0
  1
  0
  1
</dep>
<dep mux.X dtime>
  0
  0
  1
  1
  0
  0
  0
  1
</dep>
<dep out.X dtime>
  0
  0
  1
  1
  0
  0
  0
  1
</dep>
