<Qucs Dataset 0.0.19>
<indep dtime 11>
  +0.00000000000e+000
  +1.00000000000e-009
  +2.00000000000e-009
  +3.00000000000e-009
  +4.00000000000e-009
  +5.00000000000e-009
  +6.00000000000e-009
  +7.00000000000e-009
  +8.00000000000e-009
  +9.00000000000e-009
  +1.00000000000e-008
</indep>
<dep a.X dtime>
  0
  1
  0
  1
  0
  1
  0
  1
  0
  1
  0
</dep>
<dep b.X dtime>
  0
  0
  1
  1
  0
  0
  1
  1
  0
  0
  1
</dep>
<dep c.X dtime>
  0
  0
  0
  0
  1
  1
  1
  1
  0
  0
  0
</dep>
<dep d.X dtime>
  0
  0
  0
  0
  0
  0
  0
  0
  0
  0
  0
</dep>
<dep e.X dtime>
  0
  0
  0
  0
  0
  0
  0
  0
  0
  0
  0
</dep>
<dep f.X dtime>
  0
  0
  0
  0
  0
  0
  0
  0
  0
  0
  0
</dep>
<dep out.X dtime>
  0
  1
  1
  0
  1
  0
  0
  1
  0
  1
  1
</dep>
