<Qucs Dataset 0.0.18>
<indep dtime 64>
  +0.00000000000e+000
  +1.00000000000e-009
  +2.00000000000e-009
  +3.00000000000e-009
  +4.00000000000e-009
  +5.00000000000e-009
  +6.00000000000e-009
  +7.00000000000e-009
  +8.00000000000e-009
  +9.00000000000e-009
  +1.00000000000e-008
  +1.10000000000e-008
  +1.20000000000e-008
  +1.30000000000e-008
  +1.40000000000e-008
  +1.50000000000e-008
  +1.60000000000e-008
  +1.70000000000e-008
  +1.80000000000e-008
  +1.90000000000e-008
  +2.00000000000e-008
  +2.10000000000e-008
  +2.20000000000e-008
  +2.30000000000e-008
  +2.40000000000e-008
  +2.50000000000e-008
  +2.60000000000e-008
  +2.70000000000e-008
  +2.80000000000e-008
  +2.90000000000e-008
  +3.00000000000e-008
  +3.10000000000e-008
  +3.20000000000e-008
  +3.30000000000e-008
  +3.40000000000e-008
  +3.50000000000e-008
  +3.60000000000e-008
  +3.70000000000e-008
  +3.80000000000e-008
  +3.90000000000e-008
  +4.00000000000e-008
  +4.10000000000e-008
  +4.20000000000e-008
  +4.30000000000e-008
  +4.40000000000e-008
  +4.50000000000e-008
  +4.60000000000e-008
  +4.70000000000e-008
  +4.80000000000e-008
  +4.90000000000e-008
  +5.00000000000e-008
  +5.10000000000e-008
  +5.20000000000e-008
  +5.30000000000e-008
  +5.40000000000e-008
  +5.50000000000e-008
  +5.60000000000e-008
  +5.70000000000e-008
  +5.80000000000e-008
  +5.90000000000e-008
  +6.00000000000e-008
  +6.10000000000e-008
  +6.20000000000e-008
  +6.30000000000e-008
</indep>
<dep a.X dtime>
  0
  1
  0
  1
  0
  1
  0
  1
  0
  1
  0
  1
  0
  1
  0
  1
  0
  1
  0
  1
  0
  1
  0
  1
  0
  1
  0
  1
  0
  1
  0
  1
  0
  1
  0
  1
  0
  1
  0
  1
  0
  1
  0
  1
  0
  1
  0
  1
  0
  1
  0
  1
  0
  1
  0
  1
  0
  1
  0
  1
  0
  1
  0
  1
</dep>
<dep b.X dtime>
  0
  0
  1
  1
  0
  0
  1
  1
  0
  0
  1
  1
  0
  0
  1
  1
  0
  0
  1
  1
  0
  0
  1
  1
  0
  0
  1
  1
  0
  0
  1
  1
  0
  0
  1
  1
  0
  0
  1
  1
  0
  0
  1
  1
  0
  0
  1
  1
  0
  0
  1
  1
  0
  0
  1
  1
  0
  0
  1
  1
  0
  0
  1
  1
</dep>
<dep c.X dtime>
  0
  0
  0
  0
  1
  1
  1
  1
  0
  0
  0
  0
  1
  1
  1
  1
  0
  0
  0
  0
  1
  1
  1
  1
  0
  0
  0
  0
  1
  1
  1
  1
  0
  0
  0
  0
  1
  1
  1
  1
  0
  0
  0
  0
  1
  1
  1
  1
  0
  0
  0
  0
  1
  1
  1
  1
  0
  0
  0
  0
  1
  1
  1
  1
</dep>
<dep d.X dtime>
  0
  0
  0
  0
  0
  0
  0
  0
  0
  0
  0
  0
  0
  0
  0
  0
  0
  0
  0
  0
  0
  0
  0
  0
  0
  0
  0
  0
  0
  0
  0
  0
  0
  0
  0
  0
  0
  0
  0
  0
  0
  0
  0
  0
  0
  0
  0
  0
  0
  0
  0
  0
  0
  0
  0
  0
  0
  0
  0
  0
  0
  0
  0
  0
</dep>
<dep e.X dtime>
  0
  0
  0
  0
  0
  0
  0
  0
  0
  0
  0
  0
  0
  0
  0
  0
  1
  1
  1
  1
  1
  1
  1
  1
  1
  1
  1
  1
  1
  1
  1
  1
  0
  0
  0
  0
  0
  0
  0
  0
  0
  0
  0
  0
  0
  0
  0
  0
  1
  1
  1
  1
  1
  1
  1
  1
  1
  1
  1
  1
  1
  1
  1
  1
</dep>
<dep f.X dtime>
  0
  0
  0
  0
  0
  0
  0
  0
  0
  0
  0
  0
  0
  0
  0
  0
  0
  0
  0
  0
  0
  0
  0
  0
  0
  0
  0
  0
  0
  0
  0
  0
  1
  1
  1
  1
  1
  1
  1
  1
  1
  1
  1
  1
  1
  1
  1
  1
  1
  1
  1
  1
  1
  1
  1
  1
  1
  1
  1
  1
  1
  1
  1
  1
</dep>
<dep out.X dtime>
  0
  1
  1
  0
  1
  0
  0
  1
  0
  1
  1
  0
  1
  0
  0
  1
  1
  0
  0
  1
  0
  1
  1
  0
  1
  0
  0
  1
  0
  1
  1
  0
  1
  0
  0
  1
  0
  1
  1
  0
  1
  0
  0
  1
  0
  1
  1
  0
  0
  1
  1
  0
  1
  0
  0
  1
  0
  1
  1
  0
  1
  0
  0
  1
</dep>
