<Qucs Dataset 0.0.19>
<indep dtime 256>
  +0.00000000000e+000
  +1.00000000000e-009
  +2.00000000000e-009
  +3.00000000000e-009
  +4.00000000000e-009
  +5.00000000000e-009
  +6.00000000000e-009
  +7.00000000000e-009
  +8.00000000000e-009
  +9.00000000000e-009
  +1.00000000000e-008
  +1.10000000000e-008
  +1.20000000000e-008
  +1.30000000000e-008
  +1.40000000000e-008
  +1.50000000000e-008
  +1.60000000000e-008
  +1.70000000000e-008
  +1.80000000000e-008
  +1.90000000000e-008
  +2.00000000000e-008
  +2.10000000000e-008
  +2.20000000000e-008
  +2.30000000000e-008
  +2.40000000000e-008
  +2.50000000000e-008
  +2.60000000000e-008
  +2.70000000000e-008
  +2.80000000000e-008
  +2.90000000000e-008
  +3.00000000000e-008
  +3.10000000000e-008
  +3.20000000000e-008
  +3.30000000000e-008
  +3.40000000000e-008
  +3.50000000000e-008
  +3.60000000000e-008
  +3.70000000000e-008
  +3.80000000000e-008
  +3.90000000000e-008
  +4.00000000000e-008
  +4.10000000000e-008
  +4.20000000000e-008
  +4.30000000000e-008
  +4.40000000000e-008
  +4.50000000000e-008
  +4.60000000000e-008
  +4.70000000000e-008
  +4.80000000000e-008
  +4.90000000000e-008
  +5.00000000000e-008
  +5.10000000000e-008
  +5.20000000000e-008
  +5.30000000000e-008
  +5.40000000000e-008
  +5.50000000000e-008
  +5.60000000000e-008
  +5.70000000000e-008
  +5.80000000000e-008
  +5.90000000000e-008
  +6.00000000000e-008
  +6.10000000000e-008
  +6.20000000000e-008
  +6.30000000000e-008
  +6.40000000000e-008
  +6.50000000000e-008
  +6.60000000000e-008
  +6.70000000000e-008
  +6.80000000000e-008
  +6.90000000000e-008
  +7.00000000000e-008
  +7.10000000000e-008
  +7.20000000000e-008
  +7.30000000000e-008
  +7.40000000000e-008
  +7.50000000000e-008
  +7.60000000000e-008
  +7.70000000000e-008
  +7.80000000000e-008
  +7.90000000000e-008
  +8.00000000000e-008
  +8.10000000000e-008
  +8.20000000000e-008
  +8.30000000000e-008
  +8.40000000000e-008
  +8.50000000000e-008
  +8.60000000000e-008
  +8.70000000000e-008
  +8.80000000000e-008
  +8.90000000000e-008
  +9.00000000000e-008
  +9.10000000000e-008
  +9.20000000000e-008
  +9.30000000000e-008
  +9.40000000000e-008
  +9.50000000000e-008
  +9.60000000000e-008
  +9.70000000000e-008
  +9.80000000000e-008
  +9.90000000000e-008
  +1.00000000000e-007
  +1.01000000000e-007
  +1.02000000000e-007
  +1.03000000000e-007
  +1.04000000000e-007
  +1.05000000000e-007
  +1.06000000000e-007
  +1.07000000000e-007
  +1.08000000000e-007
  +1.09000000000e-007
  +1.10000000000e-007
  +1.11000000000e-007
  +1.12000000000e-007
  +1.13000000000e-007
  +1.14000000000e-007
  +1.15000000000e-007
  +1.16000000000e-007
  +1.17000000000e-007
  +1.18000000000e-007
  +1.19000000000e-007
  +1.20000000000e-007
  +1.21000000000e-007
  +1.22000000000e-007
  +1.23000000000e-007
  +1.24000000000e-007
  +1.25000000000e-007
  +1.26000000000e-007
  +1.27000000000e-007
  +1.28000000000e-007
  +1.29000000000e-007
  +1.30000000000e-007
  +1.31000000000e-007
  +1.32000000000e-007
  +1.33000000000e-007
  +1.34000000000e-007
  +1.35000000000e-007
  +1.36000000000e-007
  +1.37000000000e-007
  +1.38000000000e-007
  +1.39000000000e-007
  +1.40000000000e-007
  +1.41000000000e-007
  +1.42000000000e-007
  +1.43000000000e-007
  +1.44000000000e-007
  +1.45000000000e-007
  +1.46000000000e-007
  +1.47000000000e-007
  +1.48000000000e-007
  +1.49000000000e-007
  +1.50000000000e-007
  +1.51000000000e-007
  +1.52000000000e-007
  +1.53000000000e-007
  +1.54000000000e-007
  +1.55000000000e-007
  +1.56000000000e-007
  +1.57000000000e-007
  +1.58000000000e-007
  +1.59000000000e-007
  +1.60000000000e-007
  +1.61000000000e-007
  +1.62000000000e-007
  +1.63000000000e-007
  +1.64000000000e-007
  +1.65000000000e-007
  +1.66000000000e-007
  +1.67000000000e-007
  +1.68000000000e-007
  +1.69000000000e-007
  +1.70000000000e-007
  +1.71000000000e-007
  +1.72000000000e-007
  +1.73000000000e-007
  +1.74000000000e-007
  +1.75000000000e-007
  +1.76000000000e-007
  +1.77000000000e-007
  +1.78000000000e-007
  +1.79000000000e-007
  +1.80000000000e-007
  +1.81000000000e-007
  +1.82000000000e-007
  +1.83000000000e-007
  +1.84000000000e-007
  +1.85000000000e-007
  +1.86000000000e-007
  +1.87000000000e-007
  +1.88000000000e-007
  +1.89000000000e-007
  +1.90000000000e-007
  +1.91000000000e-007
  +1.92000000000e-007
  +1.93000000000e-007
  +1.94000000000e-007
  +1.95000000000e-007
  +1.96000000000e-007
  +1.97000000000e-007
  +1.98000000000e-007
  +1.99000000000e-007
  +2.00000000000e-007
  +2.01000000000e-007
  +2.02000000000e-007
  +2.03000000000e-007
  +2.04000000000e-007
  +2.05000000000e-007
  +2.06000000000e-007
  +2.07000000000e-007
  +2.08000000000e-007
  +2.09000000000e-007
  +2.10000000000e-007
  +2.11000000000e-007
  +2.12000000000e-007
  +2.13000000000e-007
  +2.14000000000e-007
  +2.15000000000e-007
  +2.16000000000e-007
  +2.17000000000e-007
  +2.18000000000e-007
  +2.19000000000e-007
  +2.20000000000e-007
  +2.21000000000e-007
  +2.22000000000e-007
  +2.23000000000e-007
  +2.24000000000e-007
  +2.25000000000e-007
  +2.26000000000e-007
  +2.27000000000e-007
  +2.28000000000e-007
  +2.29000000000e-007
  +2.30000000000e-007
  +2.31000000000e-007
  +2.32000000000e-007
  +2.33000000000e-007
  +2.34000000000e-007
  +2.35000000000e-007
  +2.36000000000e-007
  +2.37000000000e-007
  +2.38000000000e-007
  +2.39000000000e-007
  +2.40000000000e-007
  +2.41000000000e-007
  +2.42000000000e-007
  +2.43000000000e-007
  +2.44000000000e-007
  +2.45000000000e-007
  +2.46000000000e-007
  +2.47000000000e-007
  +2.48000000000e-007
  +2.49000000000e-007
  +2.50000000000e-007
  +2.51000000000e-007
  +2.52000000000e-007
  +2.53000000000e-007
  +2.54000000000e-007
  +2.55000000000e-007
</indep>
<dep _net0.X dtime>
  0
  0
  0
  0
  0
  0
  0
  0
  0
  0
  0
  0
  0
  0
  0
  0
  0
  0
  0
  0
  0
  0
  0
  0
  0
  0
  0
  0
  0
  0
  0
  0
  0
  0
  0
  0
  0
  0
  0
  0
  0
  0
  0
  0
  0
  0
  0
  0
  0
  0
  0
  0
  0
  0
  0
  0
  0
  0
  0
  0
  0
  0
  0
  0
  0
  0
  0
  0
  0
  0
  0
  0
  0
  0
  0
  0
  0
  0
  0
  0
  0
  0
  0
  0
  0
  0
  0
  0
  0
  0
  0
  0
  0
  0
  0
  0
  0
  0
  0
  0
  0
  0
  0
  0
  0
  0
  0
  0
  0
  0
  0
  0
  0
  0
  0
  0
  0
  0
  0
  0
  0
  0
  0
  0
  0
  0
  0
  0
  0
  0
  0
  0
  0
  0
  0
  0
  0
  0
  0
  0
  0
  0
  0
  0
  0
  0
  0
  0
  0
  0
  0
  0
  0
  0
  0
  0
  0
  0
  0
  0
  0
  0
  0
  0
  0
  0
  0
  0
  0
  0
  0
  0
  0
  0
  0
  0
  0
  0
  0
  0
  0
  0
  0
  0
  0
  0
  0
  0
  0
  0
  0
  0
  0
  0
  0
  0
  0
  0
  0
  0
  0
  0
  0
  0
  0
  0
  0
  0
  0
  0
  0
  0
  0
  0
  0
  0
  0
  0
  0
  0
  0
  0
  0
  0
  0
  0
  0
  0
  0
  0
  0
  0
  0
  0
  0
  0
  0
  0
  0
  0
  0
  0
  0
  0
  0
  0
  0
  0
  0
  0
  0
  0
  0
  0
  0
  0
</dep>
<dep _net1.X dtime>
  0
  0
  0
  1
  0
  0
  0
  1
  0
  0
  0
  1
  0
  0
  0
  1
  0
  0
  0
  1
  0
  0
  0
  1
  0
  0
  0
  1
  0
  0
  0
  1
  0
  0
  0
  1
  0
  0
  0
  1
  0
  0
  0
  1
  0
  0
  0
  1
  0
  0
  0
  1
  0
  0
  0
  1
  0
  0
  0
  1
  0
  0
  0
  1
  0
  0
  0
  1
  0
  0
  0
  1
  0
  0
  0
  1
  0
  0
  0
  1
  0
  0
  0
  1
  0
  0
  0
  1
  0
  0
  0
  1
  0
  0
  0
  1
  0
  0
  0
  1
  0
  0
  0
  1
  0
  0
  0
  1
  0
  0
  0
  1
  0
  0
  0
  1
  0
  0
  0
  1
  0
  0
  0
  1
  0
  0
  0
  1
  0
  0
  0
  1
  0
  0
  0
  1
  0
  0
  0
  1
  0
  0
  0
  1
  0
  0
  0
  1
  0
  0
  0
  1
  0
  0
  0
  1
  0
  0
  0
  1
  0
  0
  0
  1
  0
  0
  0
  1
  0
  0
  0
  1
  0
  0
  0
  1
  0
  0
  0
  1
  0
  0
  0
  1
  0
  0
  0
  1
  0
  0
  0
  1
  0
  0
  0
  1
  0
  0
  0
  1
  0
  0
  0
  1
  0
  0
  0
  1
  0
  0
  0
  1
  0
  0
  0
  1
  0
  0
  0
  1
  0
  0
  0
  1
  0
  0
  0
  1
  0
  0
  0
  1
  0
  0
  0
  1
  0
  0
  0
  1
  0
  0
  0
  1
  0
  0
  0
  1
  0
  0
  0
  1
  0
  0
  0
  1
</dep>
<dep _net10.X dtime>
  0
  0
  0
  0
  0
  0
  0
  0
  0
  0
  0
  0
  0
  0
  0
  0
  0
  0
  0
  0
  0
  0
  0
  0
  0
  0
  0
  0
  0
  0
  0
  0
  0
  0
  0
  0
  0
  0
  0
  0
  0
  0
  0
  0
  0
  0
  0
  0
  0
  0
  0
  0
  0
  0
  0
  0
  0
  0
  0
  0
  0
  0
  0
  0
  0
  0
  0
  0
  0
  0
  0
  0
  0
  0
  0
  0
  0
  0
  0
  0
  0
  0
  0
  0
  0
  0
  0
  1
  0
  0
  0
  1
  1
  1
  1
  1
  0
  0
  0
  0
  0
  0
  0
  1
  0
  0
  0
  1
  1
  1
  1
  1
  1
  1
  1
  1
  1
  1
  1
  1
  1
  1
  1
  1
  1
  1
  1
  1
  0
  0
  0
  0
  0
  0
  0
  0
  0
  0
  0
  0
  0
  0
  0
  0
  0
  0
  0
  0
  0
  0
  0
  1
  0
  0
  0
  1
  1
  1
  1
  1
  0
  0
  0
  0
  0
  0
  0
  1
  0
  0
  0
  1
  1
  1
  1
  1
  1
  1
  1
  1
  1
  1
  1
  1
  1
  1
  1
  1
  1
  1
  1
  1
  1
  1
  1
  1
  1
  1
  1
  1
  1
  1
  1
  1
  1
  1
  1
  1
  1
  1
  1
  1
  1
  1
  1
  1
  1
  1
  1
  1
  1
  1
  1
  1
  1
  1
  1
  1
  1
  1
  1
  1
  1
  1
  1
  1
  1
  1
  1
  1
  1
  1
  1
  1
  1
  1
  1
  1
  1
  1
  1
  1
  1
  1
  1
  1
</dep>
<dep _net11.X dtime>
  0
  0
  0
  0
  0
  0
  0
  0
  0
  0
  0
  0
  0
  0
  0
  0
  0
  0
  0
  0
  0
  0
  0
  0
  0
  0
  0
  0
  0
  0
  0
  0
  0
  0
  0
  0
  0
  0
  0
  0
  0
  0
  0
  0
  0
  0
  0
  0
  1
  1
  1
  1
  1
  1
  1
  1
  1
  1
  1
  1
  1
  1
  1
  1
  0
  0
  0
  0
  0
  0
  0
  0
  0
  0
  0
  0
  0
  0
  0
  0
  0
  0
  0
  0
  0
  0
  0
  0
  0
  0
  0
  0
  0
  0
  0
  0
  0
  0
  0
  0
  0
  0
  0
  0
  0
  0
  0
  0
  0
  0
  0
  0
  1
  1
  1
  1
  1
  1
  1
  1
  1
  1
  1
  1
  1
  1
  1
  1
  0
  0
  0
  0
  0
  0
  0
  0
  0
  0
  0
  0
  0
  0
  0
  0
  0
  0
  0
  0
  0
  0
  0
  0
  0
  0
  0
  0
  0
  0
  0
  0
  0
  0
  0
  0
  0
  0
  0
  0
  0
  0
  0
  0
  0
  0
  0
  0
  1
  1
  1
  1
  1
  1
  1
  1
  1
  1
  1
  1
  1
  1
  1
  1
  0
  0
  0
  0
  0
  0
  0
  0
  0
  0
  0
  0
  0
  0
  0
  0
  0
  0
  0
  0
  0
  0
  0
  0
  0
  0
  0
  0
  0
  0
  0
  0
  0
  0
  0
  0
  0
  0
  0
  0
  0
  0
  0
  0
  0
  0
  0
  0
  1
  1
  1
  1
  1
  1
  1
  1
  1
  1
  1
  1
  1
  1
  1
  1
</dep>
<dep _net12.X dtime>
  0
  0
  0
  0
  0
  0
  0
  0
  0
  0
  0
  0
  0
  0
  0
  0
  0
  0
  0
  0
  0
  0
  0
  1
  0
  0
  0
  1
  1
  1
  1
  1
  0
  0
  0
  0
  0
  0
  0
  0
  0
  0
  0
  0
  0
  0
  0
  0
  0
  0
  0
  0
  0
  0
  0
  1
  0
  0
  0
  1
  1
  1
  1
  1
  0
  0
  0
  0
  0
  0
  0
  0
  0
  0
  0
  0
  0
  0
  0
  0
  0
  0
  0
  0
  0
  0
  0
  1
  0
  0
  0
  1
  1
  1
  1
  1
  0
  0
  0
  0
  0
  0
  0
  0
  0
  0
  0
  0
  0
  0
  0
  0
  0
  0
  0
  0
  0
  0
  0
  1
  0
  0
  0
  1
  1
  1
  1
  1
  0
  0
  0
  0
  0
  0
  0
  0
  0
  0
  0
  0
  0
  0
  0
  0
  0
  0
  0
  0
  0
  0
  0
  1
  0
  0
  0
  1
  1
  1
  1
  1
  0
  0
  0
  0
  0
  0
  0
  0
  0
  0
  0
  0
  0
  0
  0
  0
  0
  0
  0
  0
  0
  0
  0
  1
  0
  0
  0
  1
  1
  1
  1
  1
  0
  0
  0
  0
  0
  0
  0
  0
  0
  0
  0
  0
  0
  0
  0
  0
  0
  0
  0
  0
  0
  0
  0
  1
  0
  0
  0
  1
  1
  1
  1
  1
  0
  0
  0
  0
  0
  0
  0
  0
  0
  0
  0
  0
  0
  0
  0
  0
  0
  0
  0
  0
  0
  0
  0
  1
  0
  0
  0
  1
  1
  1
  1
  1
</dep>
<dep _net13.X dtime>
  0
  0
  0
  0
  0
  0
  0
  0
  0
  0
  0
  0
  0
  0
  0
  0
  0
  0
  0
  0
  0
  0
  0
  0
  0
  0
  0
  0
  0
  0
  0
  0
  0
  0
  0
  0
  0
  0
  0
  1
  0
  0
  0
  1
  1
  1
  1
  1
  0
  0
  0
  0
  0
  0
  0
  1
  0
  0
  0
  1
  1
  1
  1
  1
  0
  0
  0
  0
  0
  0
  0
  0
  0
  0
  0
  0
  0
  0
  0
  0
  0
  0
  0
  0
  0
  0
  0
  0
  0
  0
  0
  0
  0
  0
  0
  0
  0
  0
  0
  0
  0
  0
  0
  1
  0
  0
  0
  1
  1
  1
  1
  1
  0
  0
  0
  0
  0
  0
  0
  1
  0
  0
  0
  1
  1
  1
  1
  1
  0
  0
  0
  0
  0
  0
  0
  0
  0
  0
  0
  0
  0
  0
  0
  0
  0
  0
  0
  0
  0
  0
  0
  0
  0
  0
  0
  0
  0
  0
  0
  0
  0
  0
  0
  0
  0
  0
  0
  1
  0
  0
  0
  1
  1
  1
  1
  1
  0
  0
  0
  0
  0
  0
  0
  1
  0
  0
  0
  1
  1
  1
  1
  1
  0
  0
  0
  0
  0
  0
  0
  0
  0
  0
  0
  0
  0
  0
  0
  0
  0
  0
  0
  0
  0
  0
  0
  0
  0
  0
  0
  0
  0
  0
  0
  0
  0
  0
  0
  0
  0
  0
  0
  1
  0
  0
  0
  1
  1
  1
  1
  1
  0
  0
  0
  0
  0
  0
  0
  1
  0
  0
  0
  1
  1
  1
  1
  1
</dep>
<dep _net2.X dtime>
  0
  0
  0
  0
  0
  0
  0
  0
  0
  0
  0
  0
  1
  1
  1
  1
  0
  0
  0
  0
  0
  0
  0
  0
  0
  0
  0
  0
  1
  1
  1
  1
  0
  0
  0
  0
  0
  0
  0
  0
  0
  0
  0
  0
  1
  1
  1
  1
  0
  0
  0
  0
  0
  0
  0
  0
  0
  0
  0
  0
  1
  1
  1
  1
  0
  0
  0
  0
  0
  0
  0
  0
  0
  0
  0
  0
  1
  1
  1
  1
  0
  0
  0
  0
  0
  0
  0
  0
  0
  0
  0
  0
  1
  1
  1
  1
  0
  0
  0
  0
  0
  0
  0
  0
  0
  0
  0
  0
  1
  1
  1
  1
  0
  0
  0
  0
  0
  0
  0
  0
  0
  0
  0
  0
  1
  1
  1
  1
  0
  0
  0
  0
  0
  0
  0
  0
  0
  0
  0
  0
  1
  1
  1
  1
  0
  0
  0
  0
  0
  0
  0
  0
  0
  0
  0
  0
  1
  1
  1
  1
  0
  0
  0
  0
  0
  0
  0
  0
  0
  0
  0
  0
  1
  1
  1
  1
  0
  0
  0
  0
  0
  0
  0
  0
  0
  0
  0
  0
  1
  1
  1
  1
  0
  0
  0
  0
  0
  0
  0
  0
  0
  0
  0
  0
  1
  1
  1
  1
  0
  0
  0
  0
  0
  0
  0
  0
  0
  0
  0
  0
  1
  1
  1
  1
  0
  0
  0
  0
  0
  0
  0
  0
  0
  0
  0
  0
  1
  1
  1
  1
  0
  0
  0
  0
  0
  0
  0
  0
  0
  0
  0
  0
  1
  1
  1
  1
</dep>
<dep _net3.X dtime>
  0
  0
  0
  0
  0
  0
  0
  1
  0
  0
  0
  0
  0
  0
  0
  1
  0
  0
  0
  0
  0
  0
  0
  1
  0
  0
  0
  0
  0
  0
  0
  1
  0
  0
  0
  0
  0
  0
  0
  1
  0
  0
  0
  0
  0
  0
  0
  1
  0
  0
  0
  0
  0
  0
  0
  1
  0
  0
  0
  0
  0
  0
  0
  1
  0
  0
  0
  0
  0
  0
  0
  1
  0
  0
  0
  0
  0
  0
  0
  1
  0
  0
  0
  0
  0
  0
  0
  1
  0
  0
  0
  0
  0
  0
  0
  1
  0
  0
  0
  0
  0
  0
  0
  1
  0
  0
  0
  0
  0
  0
  0
  1
  0
  0
  0
  0
  0
  0
  0
  1
  0
  0
  0
  0
  0
  0
  0
  1
  0
  0
  0
  0
  0
  0
  0
  1
  0
  0
  0
  0
  0
  0
  0
  1
  0
  0
  0
  0
  0
  0
  0
  1
  0
  0
  0
  0
  0
  0
  0
  1
  0
  0
  0
  0
  0
  0
  0
  1
  0
  0
  0
  0
  0
  0
  0
  1
  0
  0
  0
  0
  0
  0
  0
  1
  0
  0
  0
  0
  0
  0
  0
  1
  0
  0
  0
  0
  0
  0
  0
  1
  0
  0
  0
  0
  0
  0
  0
  1
  0
  0
  0
  0
  0
  0
  0
  1
  0
  0
  0
  0
  0
  0
  0
  1
  0
  0
  0
  0
  0
  0
  0
  1
  0
  0
  0
  0
  0
  0
  0
  1
  0
  0
  0
  0
  0
  0
  0
  1
  0
  0
  0
  0
  0
  0
  0
  1
</dep>
<dep _net4.X dtime>
  0
  0
  0
  0
  0
  0
  0
  0
  0
  0
  0
  1
  0
  0
  0
  1
  0
  0
  0
  0
  0
  0
  0
  0
  0
  0
  0
  1
  0
  0
  0
  1
  0
  0
  0
  0
  0
  0
  0
  0
  0
  0
  0
  1
  0
  0
  0
  1
  0
  0
  0
  0
  0
  0
  0
  0
  0
  0
  0
  1
  0
  0
  0
  1
  0
  0
  0
  0
  0
  0
  0
  0
  0
  0
  0
  1
  0
  0
  0
  1
  0
  0
  0
  0
  0
  0
  0
  0
  0
  0
  0
  1
  0
  0
  0
  1
  0
  0
  0
  0
  0
  0
  0
  0
  0
  0
  0
  1
  0
  0
  0
  1
  0
  0
  0
  0
  0
  0
  0
  0
  0
  0
  0
  1
  0
  0
  0
  1
  0
  0
  0
  0
  0
  0
  0
  0
  0
  0
  0
  1
  0
  0
  0
  1
  0
  0
  0
  0
  0
  0
  0
  0
  0
  0
  0
  1
  0
  0
  0
  1
  0
  0
  0
  0
  0
  0
  0
  0
  0
  0
  0
  1
  0
  0
  0
  1
  0
  0
  0
  0
  0
  0
  0
  0
  0
  0
  0
  1
  0
  0
  0
  1
  0
  0
  0
  0
  0
  0
  0
  0
  0
  0
  0
  1
  0
  0
  0
  1
  0
  0
  0
  0
  0
  0
  0
  0
  0
  0
  0
  1
  0
  0
  0
  1
  0
  0
  0
  0
  0
  0
  0
  0
  0
  0
  0
  1
  0
  0
  0
  1
  0
  0
  0
  0
  0
  0
  0
  0
  0
  0
  0
  1
  0
  0
  0
  1
</dep>
<dep _net5.X dtime>
  0
  0
  0
  0
  0
  0
  0
  1
  0
  0
  0
  1
  1
  1
  1
  1
  0
  0
  0
  0
  0
  0
  0
  1
  0
  0
  0
  1
  1
  1
  1
  1
  0
  0
  0
  0
  0
  0
  0
  1
  0
  0
  0
  1
  1
  1
  1
  1
  0
  0
  0
  0
  0
  0
  0
  1
  0
  0
  0
  1
  1
  1
  1
  1
  0
  0
  0
  0
  0
  0
  0
  1
  0
  0
  0
  1
  1
  1
  1
  1
  0
  0
  0
  0
  0
  0
  0
  1
  0
  0
  0
  1
  1
  1
  1
  1
  0
  0
  0
  0
  0
  0
  0
  1
  0
  0
  0
  1
  1
  1
  1
  1
  0
  0
  0
  0
  0
  0
  0
  1
  0
  0
  0
  1
  1
  1
  1
  1
  0
  0
  0
  0
  0
  0
  0
  1
  0
  0
  0
  1
  1
  1
  1
  1
  0
  0
  0
  0
  0
  0
  0
  1
  0
  0
  0
  1
  1
  1
  1
  1
  0
  0
  0
  0
  0
  0
  0
  1
  0
  0
  0
  1
  1
  1
  1
  1
  0
  0
  0
  0
  0
  0
  0
  1
  0
  0
  0
  1
  1
  1
  1
  1
  0
  0
  0
  0
  0
  0
  0
  1
  0
  0
  0
  1
  1
  1
  1
  1
  0
  0
  0
  0
  0
  0
  0
  1
  0
  0
  0
  1
  1
  1
  1
  1
  0
  0
  0
  0
  0
  0
  0
  1
  0
  0
  0
  1
  1
  1
  1
  1
  0
  0
  0
  0
  0
  0
  0
  1
  0
  0
  0
  1
  1
  1
  1
  1
</dep>
<dep _net6.X dtime>
  0
  0
  0
  0
  0
  0
  0
  0
  0
  0
  0
  0
  0
  0
  0
  0
  0
  0
  0
  0
  0
  0
  0
  1
  0
  0
  0
  1
  1
  1
  1
  1
  0
  0
  0
  0
  0
  0
  0
  1
  0
  0
  0
  1
  1
  1
  1
  1
  1
  1
  1
  1
  1
  1
  1
  1
  1
  1
  1
  1
  1
  1
  1
  1
  0
  0
  0
  0
  0
  0
  0
  0
  0
  0
  0
  0
  0
  0
  0
  0
  0
  0
  0
  0
  0
  0
  0
  1
  0
  0
  0
  1
  1
  1
  1
  1
  0
  0
  0
  0
  0
  0
  0
  1
  0
  0
  0
  1
  1
  1
  1
  1
  1
  1
  1
  1
  1
  1
  1
  1
  1
  1
  1
  1
  1
  1
  1
  1
  0
  0
  0
  0
  0
  0
  0
  0
  0
  0
  0
  0
  0
  0
  0
  0
  0
  0
  0
  0
  0
  0
  0
  1
  0
  0
  0
  1
  1
  1
  1
  1
  0
  0
  0
  0
  0
  0
  0
  1
  0
  0
  0
  1
  1
  1
  1
  1
  1
  1
  1
  1
  1
  1
  1
  1
  1
  1
  1
  1
  1
  1
  1
  1
  0
  0
  0
  0
  0
  0
  0
  0
  0
  0
  0
  0
  0
  0
  0
  0
  0
  0
  0
  0
  0
  0
  0
  1
  0
  0
  0
  1
  1
  1
  1
  1
  0
  0
  0
  0
  0
  0
  0
  1
  0
  0
  0
  1
  1
  1
  1
  1
  1
  1
  1
  1
  1
  1
  1
  1
  1
  1
  1
  1
  1
  1
  1
  1
</dep>
<dep _net7.X dtime>
  0
  0
  0
  0
  0
  0
  0
  0
  0
  0
  0
  0
  0
  0
  0
  0
  0
  0
  0
  0
  0
  0
  0
  0
  0
  0
  0
  0
  0
  0
  0
  0
  0
  0
  0
  0
  0
  0
  0
  0
  0
  0
  0
  0
  0
  0
  0
  0
  0
  0
  0
  0
  0
  0
  0
  0
  0
  0
  0
  0
  0
  0
  0
  0
  0
  0
  0
  0
  0
  0
  0
  0
  0
  0
  0
  0
  0
  0
  0
  0
  0
  0
  0
  0
  0
  0
  0
  0
  0
  0
  0
  0
  0
  0
  0
  0
  0
  0
  0
  0
  0
  0
  0
  0
  0
  0
  0
  0
  0
  0
  0
  0
  0
  0
  0
  0
  0
  0
  0
  0
  0
  0
  0
  0
  0
  0
  0
  0
  0
  0
  0
  0
  0
  0
  0
  0
  0
  0
  0
  0
  0
  0
  0
  0
  0
  0
  0
  0
  0
  0
  0
  0
  0
  0
  0
  0
  0
  0
  0
  0
  0
  0
  0
  0
  0
  0
  0
  0
  0
  0
  0
  0
  0
  0
  0
  0
  0
  0
  0
  0
  0
  0
  0
  0
  0
  0
  0
  0
  0
  0
  0
  0
  1
  1
  1
  1
  1
  1
  1
  1
  1
  1
  1
  1
  1
  1
  1
  1
  1
  1
  1
  1
  1
  1
  1
  1
  1
  1
  1
  1
  1
  1
  1
  1
  1
  1
  1
  1
  1
  1
  1
  1
  1
  1
  1
  1
  1
  1
  1
  1
  1
  1
  1
  1
  1
  1
  1
  1
  1
  1
  1
  1
  1
  1
  1
  1
</dep>
<dep _net8.X dtime>
  0
  0
  0
  0
  0
  0
  0
  0
  0
  0
  0
  0
  0
  0
  0
  0
  0
  0
  0
  0
  0
  0
  0
  0
  0
  0
  0
  0
  0
  0
  0
  0
  0
  0
  0
  0
  0
  0
  0
  0
  0
  0
  0
  0
  0
  0
  0
  0
  0
  0
  0
  0
  0
  0
  0
  0
  0
  0
  0
  0
  0
  0
  0
  0
  0
  0
  0
  0
  0
  0
  0
  0
  0
  0
  0
  0
  0
  0
  0
  0
  0
  0
  0
  0
  0
  0
  0
  1
  0
  0
  0
  1
  1
  1
  1
  1
  0
  0
  0
  0
  0
  0
  0
  1
  0
  0
  0
  1
  1
  1
  1
  1
  1
  1
  1
  1
  1
  1
  1
  1
  1
  1
  1
  1
  1
  1
  1
  1
  0
  0
  0
  0
  0
  0
  0
  0
  0
  0
  0
  0
  0
  0
  0
  0
  0
  0
  0
  0
  0
  0
  0
  0
  0
  0
  0
  0
  0
  0
  0
  0
  0
  0
  0
  0
  0
  0
  0
  0
  0
  0
  0
  0
  0
  0
  0
  0
  0
  0
  0
  0
  0
  0
  0
  0
  0
  0
  0
  0
  0
  0
  0
  0
  0
  0
  0
  0
  0
  0
  0
  0
  0
  0
  0
  0
  0
  0
  0
  0
  0
  0
  0
  0
  0
  0
  0
  1
  0
  0
  0
  1
  1
  1
  1
  1
  0
  0
  0
  0
  0
  0
  0
  1
  0
  0
  0
  1
  1
  1
  1
  1
  1
  1
  1
  1
  1
  1
  1
  1
  1
  1
  1
  1
  1
  1
  1
  1
</dep>
<dep _net9.X dtime>
  0
  0
  0
  0
  0
  0
  0
  0
  0
  0
  0
  0
  0
  0
  0
  0
  0
  0
  0
  0
  0
  0
  0
  0
  0
  0
  0
  0
  0
  0
  0
  0
  0
  0
  0
  0
  0
  0
  0
  0
  0
  0
  0
  0
  0
  0
  0
  0
  0
  0
  0
  0
  0
  0
  0
  0
  0
  0
  0
  0
  0
  0
  0
  0
  0
  0
  0
  0
  0
  0
  0
  0
  0
  0
  0
  0
  0
  0
  0
  0
  0
  0
  0
  0
  0
  0
  0
  0
  0
  0
  0
  0
  0
  0
  0
  0
  0
  0
  0
  0
  0
  0
  0
  0
  0
  0
  0
  0
  0
  0
  0
  0
  0
  0
  0
  0
  0
  0
  0
  0
  0
  0
  0
  0
  0
  0
  0
  0
  0
  0
  0
  0
  0
  0
  0
  0
  0
  0
  0
  0
  0
  0
  0
  0
  0
  0
  0
  0
  0
  0
  0
  1
  0
  0
  0
  1
  1
  1
