<Qucs Dataset 0.0.19>
<indep dtime 8>
  +0.00000000000e+000
  +1.00000000000e-009
  +2.00000000000e-009
  +3.00000000000e-009
  +4.00000000000e-009
  +5.00000000000e-009
  +6.00000000000e-009
  +7.00000000000e-009
</indep>
<dep a.X dtime>
  0
  1
  0
  1
  0
  1
  0
  1
</dep>
<dep b.X dtime>
  0
  0
  1
  1
  0
  0
  1
  1
</dep>
<dep cin.X dtime>
  0
  0
  0
  0
  1
  1
  1
  1
</dep>
<dep cout.X dtime>
  0
  0
  0
  1
  0
  1
  1
  1
</dep>
<dep s1.X dtime>
  0
  0
  0
  1
  0
  0
  0
  1
</dep>
<dep s2.X dtime>
  0
  0
  0
  0
  0
  1
  0
  1
</dep>
<dep s3.X dtime>
  0
  0
  0
  0
  0
  0
  1
  1
</dep>
<dep soma.X dtime>
  0
  1
  1
  0
  1
  0
  0
  1
</dep>
