<Qucs Dataset 0.0.19>
<indep dtime 16>
  +0.00000000000e+000
  +1.00000000000e-009
  +2.00000000000e-009
  +3.00000000000e-009
  +4.00000000000e-009
  +5.00000000000e-009
  +6.00000000000e-009
  +7.00000000000e-009
  +8.00000000000e-009
  +9.00000000000e-009
  +1.00000000000e-008
  +1.10000000000e-008
  +1.20000000000e-008
  +1.30000000000e-008
  +1.40000000000e-008
  +1.50000000000e-008
</indep>
<dep x1.a.X dtime>
  1
  1
  0
  1
  1
  1
  1
  1
  0
  1
  1
  1
  1
  1
  1
  1
</dep>
<dep x1.b.X dtime>
  1
  1
  1
  1
  1
  1
  0
  0
  1
  1
  0
  0
  1
  1
  1
  1
</dep>
<dep x1.b1.X dtime>
  0
  1
  0
  1
  0
  1
  0
  1
  0
  1
  0
  1
  0
  1
  0
  1
</dep>
<dep x1.b2.X dtime>
  0
  0
  1
  1
  0
  0
  1
  1
  0
  0
  1
  1
  0
  0
  1
  1
</dep>
<dep x1.b3.X dtime>
  0
  0
  0
  0
  1
  1
  1
  1
  0
  0
  0
  0
  1
  1
  1
  1
</dep>
<dep x1.b4.X dtime>
  0
  0
  0
  0
  0
  0
  0
  0
  1
  1
  1
  1
  1
  1
  1
  1
</dep>
<dep x1.c.X dtime>
  1
  1
  1
  1
  0
  0
  1
  1
  1
  1
  1
  1
  1
  1
  1
  1
</dep>
<dep x1.d.X dtime>
  1
  1
  0
  1
  1
  1
  1
  1
  0
  1
  1
  1
  1
  1
  0
  1
</dep>
<dep x1.e.X dtime>
  1
  1
  0
  0
  1
  1
  1
  1
  0
  0
  0
  0
  0
  0
  0
  0
</dep>
<dep x1.f.X dtime>
  1
  1
  1
  1
  0
  1
  1
  1
  0
  1
  1
  1
  0
  1
  0
  1
</dep>
<dep x1.g.X dtime>
  0
  1
  1
  1
  1
  1
  1
  1
  0
  1
  1
  1
  1
  1
  0
  1
</dep>
<dep a.X dtime>
  1
  1
  0
  1
  1
  1
  1
  1
  0
  1
  1
  1
  1
  1
  1
  1
</dep>
<dep b.X dtime>
  1
  1
  1
  1
  1
  1
  0
  0
  1
  1
  0
  0
  1
  1
  1
  1
</dep>
<dep b1.X dtime>
  0
  1
  0
  1
  0
  1
  0
  1
  0
  1
  0
  1
  0
  1
  0
  1
</dep>
<dep b2.X dtime>
  0
  0
  1
  1
  0
  0
  1
  1
  0
  0
  1
  1
  0
  0
  1
  1
</dep>
<dep b3.X dtime>
  0
  0
  0
  0
  1
  1
  1
  1
  0
  0
  0
  0
  1
  1
  1
  1
</dep>
<dep b4.X dtime>
  0
  0
  0
  0
  0
  0
  0
  0
  1
  1
  1
  1
  1
  1
  1
  1
</dep>
<dep c.X dtime>
  1
  1
  1
  1
  0
  0
  1
  1
  1
  1
  1
  1
  1
  1
  1
  1
</dep>
<dep d.X dtime>
  1
  1
  0
  1
  1
  1
  1
  1
  0
  1
  1
  1
  1
  1
  0
  1
</dep>
<dep e.X dtime>
  1
  1
  0
  0
  1
  1
  1
  1
  0
  0
  0
  0
  0
  0
  0
  0
</dep>
<dep f.X dtime>
  1
  1
  1
  1
  0
  1
  1
  1
  0
  1
  1
  1
  0
  1
  0
  1
</dep>
<dep g.X dtime>
  0
  1
  1
  1
  1
  1
  1
  1
  0
  1
  1
  1
  1
  1
  0
  1
</dep>
