<Qucs Dataset 0.0.18>
<indep dtime 8>
  +0.00000000000e+000
  +1.00000000000e-009
  +2.00000000000e-009
  +3.00000000000e-009
  +4.00000000000e-009
  +5.00000000000e-009
  +6.00000000000e-009
  +7.00000000000e-009
</indep>
<dep _net0.X dtime>
  1
  1
  0
  0
  1
  1
  0
  0
</dep>
<dep _net1.X dtime>
  0
  0
  0
  0
  1
  1
  0
  0
</dep>
<dep _net2.X dtime>
  0
  0
  0
  1
  0
  0
  0
  1
</dep>
<dep farol.X dtime>
  0
  0
  0
  0
  1
  1
  1
  1
</dep>
<dep ignicao.X dtime>
  0
  0
  1
  1
  0
  0
  1
  1
</dep>
<dep out.X dtime>
  0
  0
  0
  1
  1
  1
  0
  1
</dep>
<dep porta.X dtime>
  0
  1
  0
  1
  0
  1
  0
  1
</dep>
