<Qucs Dataset 0.0.18>
<indep dtime 16>
  +0.00000000000e+000
  +1.00000000000e-009
  +2.00000000000e-009
  +3.00000000000e-009
  +4.00000000000e-009
  +5.00000000000e-009
  +6.00000000000e-009
  +7.00000000000e-009
  +8.00000000000e-009
  +9.00000000000e-009
  +1.00000000000e-008
  +1.10000000000e-008
  +1.20000000000e-008
  +1.30000000000e-008
  +1.40000000000e-008
  +1.50000000000e-008
</indep>
<dep _net0.X dtime>
  0
  1
  1
  0
  0
  1
  1
  0
  0
  1
  1
  0
  0
  1
  1
  0
</dep>
<dep _net1.X dtime>
  0
  0
  0
  0
  1
  1
  1
  1
  1
  1
  1
  1
  0
  0
  0
  0
</dep>
<dep bit1.X dtime>
  0
  1
  0
  1
  0
  1
  0
  1
  0
  1
  0
  1
  0
  1
  0
  1
</dep>
<dep bit2.X dtime>
  0
  0
  1
  1
  0
  0
  1
  1
  0
  0
  1
  1
  0
  0
  1
  1
</dep>
<dep bit3.X dtime>
  0
  0
  0
  0
  1
  1
  1
  1
  0
  0
  0
  0
  1
  1
  1
  1
</dep>
<dep bit4.X dtime>
  0
  0
  0
  0
  0
  0
  0
  0
  1
  1
  1
  1
  1
  1
  1
  1
</dep>
<dep out.X dtime>
  0
  1
  1
  0
  1
  0
  0
  1
  1
  0
  0
  1
  0
  1
  1
  0
</dep>
